./i2cset -y -f 7 0x1a 0x00 0x0D 0x3 i
./i2cset -y -f 7 0x1a 0x00 0x0C 0xb6 i
./i2cset -y -f 7 0x1a 0x00 0x11 0x3 i
./i2cset -y -f 7 0x1a 0x00 0x10 0xb6 i

./i2cset -y -f 7 0x1a 0x00 0x19 0x0 i
./i2cset -y -f 7 0x1a 0x00 0x18 0x64 i
./i2cset -y -f 7 0x1a 0x00 0x1B 0x0 i
./i2cset -y -f 7 0x1a 0x00 0x1A 0x64 i

./i2cset -y -f 7 0x1a 0x00 0x25 0x0 i
./i2cset -y -f 7 0x1a 0x00 0x24 0x1 i




./i2cset -y -f 7 0x1a 0x00 0x18 0x64 i
./i2cset -y -f 7 0x1a 0x00 0x24 0x1 i